
T3324 000:312 SEGGER J-Link V5.12e Log File (0000ms, 0284ms total)
T3324 000:312 DLL Compiled: Apr 29 2016 15:03:58 (0000ms, 0284ms total)
T3324 000:312 Logging started @ 2017-07-19 18:21 (0000ms, 0284ms total)
T3324 000:312 JLINK_SetWarnOutHandler(...) (0000ms, 0284ms total)
T3324 000:312 JLINK_OpenEx(...)
Firmware: J-Link V9 compiled Mar 29 2016 18:46:37
Hardware: V9.20
S/N: 29999997
Feature(s): GDB, RDI, FlashBP, FlashDL, JFlash, RDDI  returns O.K. (0267ms, 0551ms total)
T3324 000:579 JLINK_SetErrorOutHandler(...) (0000ms, 0551ms total)
T3324 000:579 JLINK_ExecCommand("ProjectFile = "C:\ten\share\knowledge\项目\单关节鱼\产品资料\用户开发资料2017-07-17\固件\头舱\lmst_node_bootloader\prj\JLinkSettings.ini"", ...)  returns 0x00 (0000ms, 0551ms total)
T3324 000:583 JLINK_ExecCommand("Device = STM32F103CB", ...)Device "STM32F103CB" selected.  returns 0x00 (0004ms, 0555ms total)
T3324 000:587 JLINK_ExecCommand("DisableConnectionTimeout", ...)  returns 0x01 (0000ms, 0555ms total)
T3324 000:587 JLINK_GetHardwareVersion()  returns 0x16760 (0000ms, 0555ms total)
T3324 000:587 JLINK_GetDLLVersion()  returns 51205 (0000ms, 0555ms total)
T3324 000:587 JLINK_GetFirmwareString(...) (0000ms, 0555ms total)
T3324 000:605 JLINK_GetDLLVersion()  returns 51205 (0000ms, 0555ms total)
T3324 000:605 JLINK_GetCompileDateTime() (0000ms, 0555ms total)
T3324 000:606 JLINK_GetFirmwareString(...) (0000ms, 0555ms total)
T3324 000:609 JLINK_GetHardwareVersion()  returns 0x16760 (0000ms, 0555ms total)
T3324 000:616 JLINK_TIF_Select(JLINKARM_TIF_SWD)  returns 0x00 (0001ms, 0556ms total)
T3324 000:617 JLINK_SetSpeed(5000) (0000ms, 0556ms total)
T3324 000:617 JLINK_GetId() >0x108 TIF>Found SWD-DP with ID 0x1BA01477 >0x0D TIF> >0x28 TIF> >0x0D TIF> >0x28 TIF> >0x0D TIF> >0x28 TIF> >0x0D TIF> >0x28 TIF> >0x0D TIF> >0x21 TIF> >0x0D TIF> >0x28 TIF> >0x0D TIF> >0x28 TIF> >0x0D TIF> >0x28 TIF> >0x0D TIF> >0x21 TIF> >0x0D TIF> >0x21 TIF> >0x0D TIF> >0x28 TIF> >0x0D TIF> >0x21 TIF> >0x0D TIF> >0x21 TIF> >0x0D TIF> >0x28 TIF> >0x0D TIF> >0x21 TIF> >0x0D TIF> >0x21 TIF> >0x0D TIF> >0x28 TIF> >0x0D TIF> >0x21 TIF> >0x0D TIF> >0x21 TIF> >0x0D TIF>
 >0x28 TIF> >0x0D TIF> >0x21 TIF> >0x0D TIF> >0x21 TIF> >0x0D TIF> >0x28 TIF> >0x0D TIF> >0x21 TIF> >0x0D TIF> >0x21 TIF> >0x108 TIF>Found SWD-DP with ID 0x1BA01477 >0x0D TIF> >0x28 TIF> >0x0D TIF> >0x28 TIF> >0x0D TIF> >0x28 TIF> >0x0D TIF> >0x28 TIF> >0x0D TIF> >0x21 TIF> >0x0D TIF> >0x28 TIF> >0x0D TIF> >0x28 TIF> >0x0D TIF> >0x21 TIF> >0x0D TIF> >0x21 TIF> >0x0D TIF> >0x21 TIF> >0x0D TIF> >0x28 TIF> >0x0D TIF> >0x28 TIF> >0x0D TIF> >0x28 TIF> >0x0D TIF> >0x21 TIF> >0x0D TIF> >0x21 TIF> >0x0D TIF>
 >0x28 TIF> >0x0D TIF> >0x21 TIF> >0x0D TIF> >0x21 TIF>Found Cortex-M3 r1p1, Little endian. -- CPU_ReadMem(4 bytes @ 0xE000EDF0) -- CPU_ReadMem(4 bytes @ 0xE0002000)FPUnit: 6 code (BP) slots and 2 literal slots -- CPU_ReadMem(4 bytes @ 0xE000EDFC) -- CPU_ReadMem(4 bytes @ 0xE0001000) -- CPU_WriteMem(4 bytes @ 0xE0001000) -- CPU_ReadMem(4 bytes @ 0xE000ED88) -- CPU_WriteMem(4 bytes @ 0xE000ED88) -- CPU_ReadMem(4 bytes @ 0xE000ED88) -- CPU_WriteMem(4 bytes @ 0xE000ED88)CoreSight components:
ROMTbl 0 @ E00FF000 -- CPU_ReadMem(16 bytes @ 0xE00FF000) -- CPU_ReadMem(16 bytes @ 0xE000EFF0) -- CPU_ReadMem(16 bytes @ 0xE000EFE0)ROMTbl 0 [0]: FFF0F000, CID: B105E00D, PID: 001BB000 SCS -- CPU_ReadMem(16 bytes @ 0xE0001FF0) -- CPU_ReadMem(16 bytes @ 0xE0001FE0)ROMTbl 0 [1]: FFF02000, CID: B105E00D, PID: 001BB002 DWT -- CPU_ReadMem(16 bytes @ 0xE0002FF0) -- CPU_ReadMem(16 bytes @ 0xE0002FE0)ROMTbl 0 [2]: FFF03000, CID: B105E00D, PID: 000BB003 FPB -- CPU_ReadMem(16 bytes @ 0xE0000FF0)
 -- CPU_ReadMem(16 bytes @ 0xE0000FE0)ROMTbl 0 [3]: FFF01000, CID: B105E00D, PID: 001BB001 ITM -- CPU_ReadMem(16 bytes @ 0xE00FF010) -- CPU_ReadMem(16 bytes @ 0xE0040FF0) -- CPU_ReadMem(16 bytes @ 0xE0040FE0)ROMTbl 0 [4]: FFF41000, CID: B105900D, PID: 001BB923 TPIU-Lite >0x0D TIF> >0x21 TIF>  returns 0x1BA01477 (0052ms, 0608ms total)
T3324 000:669 JLINK_GetDLLVersion()  returns 51205 (0000ms, 0608ms total)
T3324 000:669 JLINK_CORE_GetFound()  returns 0x30000FF (0000ms, 0608ms total)
T3324 000:669 JLINK_GetDebugInfo(0x100) -- Value=0xE00FF000  returns 0x00 (0000ms, 0608ms total)
T3324 000:677 JLINK_GetDebugInfo(0x100) -- Value=0xE00FF000  returns 0x00 (0000ms, 0608ms total)
T3324 000:677 JLINK_GetDebugInfo(0x101) -- Value=0x00000000  returns 0x00 (0000ms, 0608ms total)
T3324 000:677 JLINK_ReadMem (0xE0041FF0, 0x0010 Bytes, ...) -- CPU is running -- CPU_ReadMem(16 bytes @ 0xE0041FF0) - Data: 00 00 00 00 00 00 00 00 00 00 00 00 00 00 00 00  returns 0x00 (0001ms, 0609ms total)
T3324 000:678 JLINK_GetDebugInfo(0x102) -- Value=0x00000000  returns 0x00 (0000ms, 0609ms total)
T3324 000:678 JLINK_GetDebugInfo(0x103) -- Value=0xE0040000  returns 0x00 (0000ms, 0609ms total)
T3324 000:678 JLINK_GetDebugInfo(0x104) -- Value=0xE0000000  returns 0x00 (0000ms, 0609ms total)
T3324 000:678 JLINK_GetDebugInfo(0x105) -- Value=0xE0001000  returns 0x00 (0000ms, 0609ms total)
T3324 000:678 JLINK_GetDebugInfo(0x106) -- Value=0xE0002000  returns 0x00 (0000ms, 0609ms total)
T3324 000:678 JLINK_GetDebugInfo(0x107) -- Value=0xE000E000  returns 0x00 (0000ms, 0609ms total)
T3324 000:678 JLINK_GetDebugInfo(0x10C) -- Value=0xE000EDF0  returns 0x00 (0000ms, 0609ms total)
T3324 000:678 JLINK_ReadMemU32(0xE000ED00, 0x0001 Items, ...) -- CPU is running -- CPU_ReadMem(4 bytes @ 0xE000ED00) - Data: 31 C2 1F 41  returns 0x01 (0000ms, 0609ms total)
T3324 000:678 JLINK_SetResetType(JLINKARM_RESET_TYPE_NORMAL)  returns JLINKARM_RESET_TYPE_NORMAL (0000ms, 0609ms total)
T3324 000:678 JLINK_Reset() -- CPU is running -- CPU_WriteMem(4 bytes @ 0xE000EDF0) -- CPU is running -- CPU_WriteMem(4 bytes @ 0xE000EDFC) >0x35 TIF> -- CPU is running -- CPU_WriteMem(4 bytes @ 0xE000ED0C) -- CPU is running -- CPU_ReadMem(4 bytes @ 0xE000EDF0) -- CPU is running -- CPU_ReadMem(4 bytes @ 0xE000EDF0) -- CPU is running -- CPU_WriteMem(4 bytes @ 0xE000EDF0) -- CPU is running -- CPU_WriteMem(4 bytes @ 0xE000EDFC) -- CPU is running -- CPU_ReadMem(4 bytes @ 0xE000EDF0)
 -- CPU_WriteMem(4 bytes @ 0xE0002000) -- CPU_ReadMem(4 bytes @ 0xE000EDFC) -- CPU_ReadMem(4 bytes @ 0xE0001000) (0017ms, 0626ms total)
T3324 000:695 JLINK_Halt()  returns 0x00 (0000ms, 0626ms total)
T3324 000:695 JLINK_IsHalted()  returns TRUE (0000ms, 0626ms total)
T3324 000:695 JLINK_ReadMemU32(0xE000EDF0, 0x0001 Items, ...) -- CPU_ReadMem(4 bytes @ 0xE000EDF0) - Data: 03 00 03 00  returns 0x01 (0001ms, 0627ms total)
T3324 000:696 JLINK_WriteU32(0xE000EDF0, 0xA05F0003) -- CPU_WriteMem(4 bytes @ 0xE000EDF0)  returns 0x00 (0001ms, 0628ms total)
T3324 000:697 JLINK_WriteU32(0xE000EDFC, 0x01000000) -- CPU_WriteMem(4 bytes @ 0xE000EDFC)  returns 0x00 (0000ms, 0628ms total)
T3324 000:712 JLINK_GetHWStatus(...)  returns 0x00 (0001ms, 0629ms total)
T3324 000:723 JLINK_GetNumBPUnits(Type = 0xFFFFFF00)  returns 0x06 (0000ms, 0629ms total)
T3324 000:723 JLINK_GetNumBPUnits(Type = 0xF0)  returns 0x2000 (0000ms, 0629ms total)
T3324 000:723 JLINK_GetNumWPUnits()  returns 0x04 (0000ms, 0629ms total)
T3324 000:727 JLINK_GetSpeed()  returns 0xFA0 (0000ms, 0629ms total)
T3324 000:730 JLINK_ReadMemU32(0xE000E004, 0x0001 Items, ...) -- CPU_ReadMem(4 bytes @ 0xE000E004) - Data: 01 00 00 00  returns 0x01 (0001ms, 0630ms total)
T3324 000:731 JLINK_ReadMemU32(0xE000E004, 0x0001 Items, ...) -- CPU_ReadMem(4 bytes @ 0xE000E004) - Data: 01 00 00 00  returns 0x01 (0000ms, 0630ms total)
T3324 000:731 JLINK_WriteMem(0xE0001000, 0x001C Bytes, ...) - Data: 01 00 00 00 00 00 00 00 00 00 00 00 00 00 00 00 ... -- CPU_WriteMem(28 bytes @ 0xE0001000)  returns 0x1C (0002ms, 0632ms total)
T3324 000:733 JLINK_ReadMem (0xE0001000, 0x001C Bytes, ...) -- CPU_ReadMem(28 bytes @ 0xE0001000) - Data: 01 00 00 40 00 00 00 00 00 00 00 00 00 00 00 00 ...  returns 0x00 (0000ms, 0632ms total)
T3324 000:733 JLINK_Halt()  returns 0x00 (0000ms, 0632ms total)
T3324 000:733 JLINK_IsHalted()  returns TRUE (0000ms, 0632ms total)
T3324 000:736 JLINK_WriteMem(0x20000000, 0x0164 Bytes, ...) - Data: 00 BE 0A E0 0D 78 2D 06 68 40 08 24 40 00 00 D3 ... -- CPU_WriteMem(356 bytes @ 0x20000000)  returns 0x164 (0004ms, 0636ms total)
T3324 000:740 JLINK_WriteReg(R0, 0x08000000)  returns 0x00 (0000ms, 0636ms total)
T3324 000:740 JLINK_WriteReg(R1, 0x00B71B00)  returns 0x00 (0000ms, 0636ms total)
T3324 000:740 JLINK_WriteReg(R2, 0x00000001)  returns 0x00 (0000ms, 0636ms total)
T3324 000:740 JLINK_WriteReg(R3, 0x00000000)  returns 0x00 (0000ms, 0636ms total)
T3324 000:740 JLINK_WriteReg(R4, 0x00000000)  returns 0x00 (0000ms, 0636ms total)
T3324 000:740 JLINK_WriteReg(R5, 0x00000000)  returns 0x00 (0000ms, 0636ms total)
T3324 000:740 JLINK_WriteReg(R6, 0x00000000)  returns 0x00 (0000ms, 0636ms total)
T3324 000:740 JLINK_WriteReg(R7, 0x00000000)  returns 0x00 (0000ms, 0636ms total)
T3324 000:740 JLINK_WriteReg(R8, 0x00000000)  returns 0x00 (0000ms, 0636ms total)
T3324 000:740 JLINK_WriteReg(R9, 0x20000160)  returns 0x00 (0000ms, 0636ms total)
T3324 000:740 JLINK_WriteReg(R10, 0x00000000)  returns 0x00 (0000ms, 0636ms total)
T3324 000:740 JLINK_WriteReg(R11, 0x00000000)  returns 0x00 (0000ms, 0636ms total)
T3324 000:740 JLINK_WriteReg(R12, 0x00000000)  returns 0x00 (0000ms, 0636ms total)
T3324 000:740 JLINK_WriteReg(R13 (SP), 0x20001000)  returns 0x00 (0000ms, 0636ms total)
T3324 000:740 JLINK_WriteReg(R14, 0x20000001)  returns 0x00 (0000ms, 0636ms total)
T3324 000:740 JLINK_WriteReg(R15 (PC), 0x20000038)  returns 0x00 (0000ms, 0636ms total)
T3324 000:740 JLINK_WriteReg(XPSR, 0x01000000)  returns 0x00 (0000ms, 0636ms total)
T3324 000:740 JLINK_WriteReg(MSP, 0x20001000)  returns 0x00 (0000ms, 0636ms total)
T3324 000:740 JLINK_WriteReg(PSP, 0x20001000)  returns 0x00 (0000ms, 0636ms total)
T3324 000:740 JLINK_WriteReg(CFBP, 0x00000000)  returns 0x00 (0000ms, 0636ms total)
T3324 000:740 JLINK_SetBPEx(Addr = 0x20000000, Type = 0xFFFFFFF2) -- CPU_ReadMem(2 bytes @ 0x20000000)  returns 0x00000001 (0000ms, 0636ms total)
T3324 000:740 JLINK_Go() -- CPU_WriteMem(2 bytes @ 0x20000000) -- CPU_ReadMem(4 bytes @ 0xE0001000) -- CPU_WriteMem(4 bytes @ 0xE0002008) -- CPU_WriteMem(4 bytes @ 0xE000200C) -- CPU_WriteMem(4 bytes @ 0xE0002010) -- CPU_WriteMem(4 bytes @ 0xE0002014) -- CPU_WriteMem(4 bytes @ 0xE0002018) -- CPU_WriteMem(4 bytes @ 0xE000201C) -- CPU_WriteMem(4 bytes @ 0xE0001004) (0004ms, 0640ms total)
T3324 000:744 JLINK_IsHalted() -- CPU_ReadMem(2 bytes @ 0x20000000)  returns TRUE (0003ms, 0643ms total)
T3324 000:747 JLINK_ReadReg(R15 (PC))  returns 0x20000000 (0000ms, 0640ms total)
T3324 000:747 JLINK_ClrBPEx(BPHandle = 0x00000001)  returns 0x00 (0000ms, 0640ms total)
T3324 000:747 JLINK_ReadReg(R0)  returns 0x00000000 (0000ms, 0640ms total)
T3324 000:747 JLINK_WriteReg(R0, 0x08000000)  returns 0x00 (0000ms, 0640ms total)
T3324 000:747 JLINK_WriteReg(R1, 0x00B71B00)  returns 0x00 (0000ms, 0640ms total)
T3324 000:747 JLINK_WriteReg(R2, 0x00000001)  returns 0x00 (0000ms, 0640ms total)
T3324 000:747 JLINK_WriteReg(R3, 0x00000000)  returns 0x00 (0000ms, 0640ms total)
T3324 000:747 JLINK_WriteReg(R4, 0x00000000)  returns 0x00 (0000ms, 0640ms total)
T3324 000:747 JLINK_WriteReg(R5, 0x00000000)  returns 0x00 (0000ms, 0640ms total)
T3324 000:747 JLINK_WriteReg(R6, 0x00000000)  returns 0x00 (0001ms, 0641ms total)
T3324 000:748 JLINK_WriteReg(R7, 0x00000000)  returns 0x00 (0000ms, 0641ms total)
T3324 000:748 JLINK_WriteReg(R8, 0x00000000)  returns 0x00 (0000ms, 0641ms total)
T3324 000:748 JLINK_WriteReg(R9, 0x20000160)  returns 0x00 (0000ms, 0641ms total)
T3324 000:748 JLINK_WriteReg(R10, 0x00000000)  returns 0x00 (0000ms, 0641ms total)
T3324 000:748 JLINK_WriteReg(R11, 0x00000000)  returns 0x00 (0000ms, 0641ms total)
T3324 000:748 JLINK_WriteReg(R12, 0x00000000)  returns 0x00 (0000ms, 0641ms total)
T3324 000:748 JLINK_WriteReg(R13 (SP), 0x20001000)  returns 0x00 (0000ms, 0641ms total)
T3324 000:748 JLINK_WriteReg(R14, 0x20000001)  returns 0x00 (0000ms, 0641ms total)
T3324 000:748 JLINK_WriteReg(R15 (PC), 0x2000007C)  returns 0x00 (0000ms, 0641ms total)
T3324 000:748 JLINK_WriteReg(XPSR, 0x01000000)  returns 0x00 (0000ms, 0641ms total)
T3324 000:748 JLINK_WriteReg(MSP, 0x20001000)  returns 0x00 (0000ms, 0641ms total)
T3324 000:748 JLINK_WriteReg(PSP, 0x20001000)  returns 0x00 (0000ms, 0641ms total)
T3324 000:748 JLINK_WriteReg(CFBP, 0x00000000)  returns 0x00 (0000ms, 0641ms total)
T3324 000:748 JLINK_SetBPEx(Addr = 0x20000000, Type = 0xFFFFFFF2)  returns 0x00000002 (0000ms, 0641ms total)
T3324 000:748 JLINK_Go() -- CPU_ReadMem(4 bytes @ 0xE0001000) (0001ms, 0642ms total)
T3324 000:749 JLINK_IsHalted()  returns FALSE (0001ms, 0643ms total)
T3324 000:777 JLINK_IsHalted() -- CPU_ReadMem(2 bytes @ 0x20000000)  returns TRUE (0002ms, 0644ms total)
T3324 000:779 JLINK_ReadReg(R15 (PC))  returns 0x20000000 (0000ms, 0642ms total)
T3324 000:780 JLINK_ClrBPEx(BPHandle = 0x00000002)  returns 0x00 (0000ms, 0643ms total)
T3324 000:780 JLINK_ReadReg(R0)  returns 0x00000000 (0000ms, 0643ms total)
T3324 000:832 JLINK_WriteReg(R0, 0x00000001)  returns 0x00 (0000ms, 0643ms total)
T3324 000:832 JLINK_WriteReg(R1, 0x00B71B00)  returns 0x00 (0000ms, 0643ms total)
T3324 000:832 JLINK_WriteReg(R2, 0x00000001)  returns 0x00 (0000ms, 0643ms total)
T3324 000:832 JLINK_WriteReg(R3, 0x00000000)  returns 0x00 (0000ms, 0643ms total)
T3324 000:832 JLINK_WriteReg(R4, 0x00000000)  returns 0x00 (0000ms, 0643ms total)
T3324 000:832 JLINK_WriteReg(R5, 0x00000000)  returns 0x00 (0000ms, 0643ms total)
T3324 000:832 JLINK_WriteReg(R6, 0x00000000)  returns 0x00 (0000ms, 0643ms total)
T3324 000:832 JLINK_WriteReg(R7, 0x00000000)  returns 0x00 (0000ms, 0643ms total)
T3324 000:832 JLINK_WriteReg(R8, 0x00000000)  returns 0x00 (0000ms, 0643ms total)
T3324 000:832 JLINK_WriteReg(R9, 0x20000160)  returns 0x00 (0000ms, 0643ms total)
T3324 000:832 JLINK_WriteReg(R10, 0x00000000)  returns 0x00 (0000ms, 0643ms total)
T3324 000:832 JLINK_WriteReg(R11, 0x00000000)  returns 0x00 (0000ms, 0643ms total)
T3324 000:832 JLINK_WriteReg(R12, 0x00000000)  returns 0x00 (0000ms, 0643ms total)
T3324 000:832 JLINK_WriteReg(R13 (SP), 0x20001000)  returns 0x00 (0000ms, 0643ms total)
T3324 000:832 JLINK_WriteReg(R14, 0x20000001)  returns 0x00 (0000ms, 0643ms total)
T3324 000:832 JLINK_WriteReg(R15 (PC), 0x2000006A)  returns 0x00 (0000ms, 0643ms total)
T3324 000:832 JLINK_WriteReg(XPSR, 0x01000000)  returns 0x00 (0000ms, 0643ms total)
T3324 000:832 JLINK_WriteReg(MSP, 0x20001000)  returns 0x00 (0000ms, 0643ms total)
T3324 000:832 JLINK_WriteReg(PSP, 0x20001000)  returns 0x00 (0000ms, 0643ms total)
T3324 000:832 JLINK_WriteReg(CFBP, 0x00000000)  returns 0x00 (0000ms, 0643ms total)
T3324 000:832 JLINK_SetBPEx(Addr = 0x20000000, Type = 0xFFFFFFF2)  returns 0x00000003 (0000ms, 0643ms total)
T3324 000:832 JLINK_Go() -- CPU_ReadMem(4 bytes @ 0xE0001000) (0002ms, 0645ms total)
T3324 000:834 JLINK_IsHalted() -- CPU_ReadMem(2 bytes @ 0x20000000)  returns TRUE (0003ms, 0648ms total)
T3324 000:837 JLINK_ReadReg(R15 (PC))  returns 0x20000000 (0000ms, 0645ms total)
T3324 000:837 JLINK_ClrBPEx(BPHandle = 0x00000003)  returns 0x00 (0000ms, 0645ms total)
T3324 000:837 JLINK_ReadReg(R0)  returns 0x00000000 (0000ms, 0645ms total)
T3324 000:842 JLINK_WriteMem(0x20000000, 0x0164 Bytes, ...) - Data: 00 BE 0A E0 0D 78 2D 06 68 40 08 24 40 00 00 D3 ... -- CPU_WriteMem(356 bytes @ 0x20000000)  returns 0x164 (0002ms, 0647ms total)
T3324 000:844 JLINK_WriteReg(R0, 0x08000000)  returns 0x00 (0000ms, 0647ms total)
T3324 000:844 JLINK_WriteReg(R1, 0x00B71B00)  returns 0x00 (0000ms, 0647ms total)
T3324 000:844 JLINK_WriteReg(R2, 0x00000002)  returns 0x00 (0000ms, 0647ms total)
T3324 000:844 JLINK_WriteReg(R3, 0x00000000)  returns 0x00 (0000ms, 0647ms total)
T3324 000:844 JLINK_WriteReg(R4, 0x00000000)  returns 0x00 (0000ms, 0647ms total)
T3324 000:844 JLINK_WriteReg(R5, 0x00000000)  returns 0x00 (0000ms, 0647ms total)
T3324 000:844 JLINK_WriteReg(R6, 0x00000000)  returns 0x00 (0000ms, 0647ms total)
T3324 000:844 JLINK_WriteReg(R7, 0x00000000)  returns 0x00 (0000ms, 0647ms total)
T3324 000:844 JLINK_WriteReg(R8, 0x00000000)  returns 0x00 (0000ms, 0647ms total)
T3324 000:844 JLINK_WriteReg(R9, 0x20000160)  returns 0x00 (0000ms, 0647ms total)
T3324 000:844 JLINK_WriteReg(R10, 0x00000000)  returns 0x00 (0000ms, 0647ms total)
T3324 000:844 JLINK_WriteReg(R11, 0x00000000)  returns 0x00 (0000ms, 0647ms total)
T3324 000:844 JLINK_WriteReg(R12, 0x00000000)  returns 0x00 (0000ms, 0647ms total)
T3324 000:844 JLINK_WriteReg(R13 (SP), 0x20001000)  returns 0x00 (0000ms, 0647ms total)
T3324 000:844 JLINK_WriteReg(R14, 0x20000001)  returns 0x00 (0000ms, 0647ms total)
T3324 000:844 JLINK_WriteReg(R15 (PC), 0x20000038)  returns 0x00 (0000ms, 0647ms total)
T3324 000:844 JLINK_WriteReg(XPSR, 0x01000000)  returns 0x00 (0000ms, 0647ms total)
T3324 000:844 JLINK_WriteReg(MSP, 0x20001000)  returns 0x00 (0000ms, 0647ms total)
T3324 000:844 JLINK_WriteReg(PSP, 0x20001000)  returns 0x00 (0000ms, 0647ms total)
T3324 000:844 JLINK_WriteReg(CFBP, 0x00000000)  returns 0x00 (0000ms, 0647ms total)
T3324 000:844 JLINK_SetBPEx(Addr = 0x20000000, Type = 0xFFFFFFF2) -- CPU_ReadMem(2 bytes @ 0x20000000)  returns 0x00000004 (0001ms, 0648ms total)
T3324 000:845 JLINK_Go() -- CPU_WriteMem(2 bytes @ 0x20000000) -- CPU_ReadMem(4 bytes @ 0xE0001000) (0002ms, 0650ms total)
T3324 000:847 JLINK_IsHalted() -- CPU_ReadMem(2 bytes @ 0x20000000)  returns TRUE (0003ms, 0653ms total)
T3324 000:850 JLINK_ReadReg(R15 (PC))  returns 0x20000000 (0000ms, 0650ms total)
T3324 000:851 JLINK_ClrBPEx(BPHandle = 0x00000004)  returns 0x00 (0000ms, 0651ms total)
T3324 000:851 JLINK_ReadReg(R0)  returns 0x00000000 (0000ms, 0651ms total)
T3324 000:851 JLINK_WriteMem(0x20000164, 0x0400 Bytes, ...) - Data: 90 44 00 20 91 02 00 08 99 02 00 08 9B 02 00 08 ... -- CPU_WriteMem(1024 bytes @ 0x20000164)  returns 0x400 (0005ms, 0656ms total)
T3324 000:856 JLINK_WriteReg(R0, 0x08000000)  returns 0x00 (0000ms, 0656ms total)
T3324 000:856 JLINK_WriteReg(R1, 0x00000400)  returns 0x00 (0000ms, 0656ms total)
T3324 000:856 JLINK_WriteReg(R2, 0x20000164)  returns 0x00 (0000ms, 0656ms total)
T3324 000:856 JLINK_WriteReg(R3, 0x00000000)  returns 0x00 (0000ms, 0656ms total)
T3324 000:856 JLINK_WriteReg(R4, 0x00000000)  returns 0x00 (0000ms, 0656ms total)
T3324 000:856 JLINK_WriteReg(R5, 0x00000000)  returns 0x00 (0000ms, 0656ms total)
T3324 000:856 JLINK_WriteReg(R6, 0x00000000)  returns 0x00 (0000ms, 0656ms total)
T3324 000:856 JLINK_WriteReg(R7, 0x00000000)  returns 0x00 (0000ms, 0656ms total)
T3324 000:856 JLINK_WriteReg(R8, 0x00000000)  returns 0x00 (0000ms, 0656ms total)
T3324 000:856 JLINK_WriteReg(R9, 0x20000160)  returns 0x00 (0000ms, 0656ms total)
T3324 000:856 JLINK_WriteReg(R10, 0x00000000)  returns 0x00 (0000ms, 0656ms total)
T3324 000:856 JLINK_WriteReg(R11, 0x00000000)  returns 0x00 (0000ms, 0656ms total)
T3324 000:856 JLINK_WriteReg(R12, 0x00000000)  returns 0x00 (0000ms, 0656ms total)
T3324 000:856 JLINK_WriteReg(R13 (SP), 0x20001000)  returns 0x00 (0000ms, 0656ms total)
T3324 000:856 JLINK_WriteReg(R14, 0x20000001)  returns 0x00 (0000ms, 0656ms total)
T3324 000:856 JLINK_WriteReg(R15 (PC), 0x200000F4)  returns 0x00 (0000ms, 0656ms total)
T3324 000:856 JLINK_WriteReg(XPSR, 0x01000000)  returns 0x00 (0000ms, 0656ms total)
T3324 000:856 JLINK_WriteReg(MSP, 0x20001000)  returns 0x00 (0000ms, 0656ms total)
T3324 000:856 JLINK_WriteReg(PSP, 0x20001000)  returns 0x00 (0000ms, 0656ms total)
T3324 000:856 JLINK_WriteReg(CFBP, 0x00000000)  returns 0x00 (0000ms, 0656ms total)
T3324 000:856 JLINK_SetBPEx(Addr = 0x20000000, Type = 0xFFFFFFF2)  returns 0x00000005 (0000ms, 0656ms total)
T3324 000:856 JLINK_Go() -- CPU_ReadMem(4 bytes @ 0xE0001000) (0002ms, 0658ms total)
T3324 000:858 JLINK_IsHalted()  returns FALSE (0000ms, 0658ms total)
T3324 000:864 JLINK_IsHalted()  returns FALSE (0000ms, 0658ms total)
T3324 000:866 JLINK_IsHalted()  returns FALSE (0000ms, 0658ms total)
T3324 000:868 JLINK_IsHalted()  returns FALSE (0000ms, 0658ms total)
T3324 000:870 JLINK_IsHalted()  returns FALSE (0000ms, 0658ms total)
T3324 000:872 JLINK_IsHalted()  returns FALSE (0000ms, 0658ms total)
T3324 000:875 JLINK_IsHalted()  returns FALSE (0000ms, 0658ms total)
T3324 000:877 JLINK_IsHalted()  returns FALSE (0000ms, 0658ms total)
T3324 000:879 JLINK_IsHalted()  returns FALSE (0000ms, 0658ms total)
T3324 000:882 JLINK_IsHalted()  returns FALSE (0000ms, 0658ms total)
T3324 000:884 JLINK_IsHalted()  returns FALSE (0000ms, 0658ms total)
T3324 000:886 JLINK_IsHalted()  returns FALSE (0000ms, 0658ms total)
T3324 000:888 JLINK_IsHalted()  returns FALSE (0000ms, 0658ms total)
T3324 000:890 JLINK_IsHalted() -- CPU_ReadMem(2 bytes @ 0x20000000)  returns TRUE (0003ms, 0661ms total)
T3324 000:893 JLINK_ReadReg(R15 (PC))  returns 0x20000000 (0000ms, 0658ms total)
T3324 000:893 JLINK_ClrBPEx(BPHandle = 0x00000005)  returns 0x00 (0000ms, 0658ms total)
T3324 000:893 JLINK_ReadReg(R0)  returns 0x00000000 (0000ms, 0658ms total)
T3324 000:894 JLINK_WriteMem(0x20000164, 0x0400 Bytes, ...) - Data: A8 69 E6 18 C0 1A A8 61 28 6A 18 44 28 62 28 46 ... -- CPU_WriteMem(1024 bytes @ 0x20000164)  returns 0x400 (0004ms, 0662ms total)
T3324 000:898 JLINK_WriteReg(R0, 0x08000400)  returns 0x00 (0000ms, 0662ms total)
T3324 000:898 JLINK_WriteReg(R1, 0x00000400)  returns 0x00 (0000ms, 0662ms total)
T3324 000:898 JLINK_WriteReg(R2, 0x20000164)  returns 0x00 (0000ms, 0662ms total)
T3324 000:898 JLINK_WriteReg(R3, 0x00000000)  returns 0x00 (0000ms, 0662ms total)
T3324 000:898 JLINK_WriteReg(R4, 0x00000000)  returns 0x00 (0000ms, 0662ms total)
T3324 000:898 JLINK_WriteReg(R5, 0x00000000)  returns 0x00 (0000ms, 0662ms total)
T3324 000:898 JLINK_WriteReg(R6, 0x00000000)  returns 0x00 (0000ms, 0662ms total)
T3324 000:898 JLINK_WriteReg(R7, 0x00000000)  returns 0x00 (0000ms, 0662ms total)
T3324 000:898 JLINK_WriteReg(R8, 0x00000000)  returns 0x00 (0000ms, 0662ms total)
T3324 000:898 JLINK_WriteReg(R9, 0x20000160)  returns 0x00 (0000ms, 0662ms total)
T3324 000:899 JLINK_WriteReg(R10, 0x00000000)  returns 0x00 (0000ms, 0663ms total)
T3324 000:899 JLINK_WriteReg(R11, 0x00000000)  returns 0x00 (0000ms, 0663ms total)
T3324 000:899 JLINK_WriteReg(R12, 0x00000000)  returns 0x00 (0000ms, 0663ms total)
T3324 000:899 JLINK_WriteReg(R13 (SP), 0x20001000)  returns 0x00 (0000ms, 0663ms total)
T3324 000:899 JLINK_WriteReg(R14, 0x20000001)  returns 0x00 (0000ms, 0663ms total)
T3324 000:899 JLINK_WriteReg(R15 (PC), 0x200000F4)  returns 0x00 (0000ms, 0663ms total)
T3324 000:899 JLINK_WriteReg(XPSR, 0x01000000)  returns 0x00 (0000ms, 0663ms total)
T3324 000:899 JLINK_WriteReg(MSP, 0x20001000)  returns 0x00 (0000ms, 0663ms total)
T3324 000:899 JLINK_WriteReg(PSP, 0x20001000)  returns 0x00 (0000ms, 0663ms total)
T3324 000:899 JLINK_WriteReg(CFBP, 0x00000000)  returns 0x00 (0000ms, 0663ms total)
T3324 000:899 JLINK_SetBPEx(Addr = 0x20000000, Type = 0xFFFFFFF2)  returns 0x00000006 (0000ms, 0663ms total)
T3324 000:899 JLINK_Go() -- CPU_ReadMem(4 bytes @ 0xE0001000) (0002ms, 0665ms total)
T3324 000:901 JLINK_IsHalted()  returns FALSE (0001ms, 0666ms total)
T3324 000:904 JLINK_IsHalted()  returns FALSE (0000ms, 0665ms total)
T3324 000:906 JLINK_IsHalted()  returns FALSE (0000ms, 0665ms total)
T3324 000:908 JLINK_IsHalted()  returns FALSE (0000ms, 0665ms total)
T3324 000:910 JLINK_IsHalted()  returns FALSE (0000ms, 0665ms total)
T3324 000:912 JLINK_IsHalted()  returns FALSE (0000ms, 0665ms total)
T3324 000:914 JLINK_IsHalted()  returns FALSE (0000ms, 0665ms total)
T3324 000:916 JLINK_IsHalted()  returns FALSE (0000ms, 0665ms total)
T3324 000:918 JLINK_IsHalted()  returns FALSE (0000ms, 0665ms total)
T3324 000:920 JLINK_IsHalted()  returns FALSE (0000ms, 0665ms total)
T3324 000:922 JLINK_IsHalted()  returns FALSE (0000ms, 0665ms total)
T3324 000:924 JLINK_IsHalted()  returns FALSE (0000ms, 0665ms total)
T3324 000:926 JLINK_IsHalted()  returns FALSE (0000ms, 0665ms total)
T3324 000:928 JLINK_IsHalted()  returns FALSE (0000ms, 0665ms total)
T3324 000:930 JLINK_IsHalted()  returns FALSE (0000ms, 0665ms total)
T3324 000:932 JLINK_IsHalted() -- CPU_ReadMem(2 bytes @ 0x20000000)  returns TRUE (0003ms, 0668ms total)
T3324 000:935 JLINK_ReadReg(R15 (PC))  returns 0x20000000 (0000ms, 0665ms total)
T3324 000:935 JLINK_ClrBPEx(BPHandle = 0x00000006)  returns 0x00 (0000ms, 0665ms total)
T3324 000:935 JLINK_ReadReg(R0)  returns 0x00000000 (0000ms, 0665ms total)
T3324 000:936 JLINK_WriteMem(0x20000164, 0x0400 Bytes, ...) - Data: 98 B2 A1 B2 40 1A 50 EA 05 41 0A D1 23 F0 7F 40 ... -- CPU_WriteMem(1024 bytes @ 0x20000164)  returns 0x400 (0004ms, 0669ms total)
T3324 000:940 JLINK_WriteReg(R0, 0x08000800)  returns 0x00 (0000ms, 0669ms total)
T3324 000:940 JLINK_WriteReg(R1, 0x00000400)  returns 0x00 (0000ms, 0669ms total)
T3324 000:940 JLINK_WriteReg(R2, 0x20000164)  returns 0x00 (0000ms, 0669ms total)
T3324 000:940 JLINK_WriteReg(R3, 0x00000000)  returns 0x00 (0000ms, 0669ms total)
T3324 000:940 JLINK_WriteReg(R4, 0x00000000)  returns 0x00 (0000ms, 0669ms total)
T3324 000:940 JLINK_WriteReg(R5, 0x00000000)  returns 0x00 (0000ms, 0669ms total)
T3324 000:940 JLINK_WriteReg(R6, 0x00000000)  returns 0x00 (0000ms, 0669ms total)
T3324 000:940 JLINK_WriteReg(R7, 0x00000000)  returns 0x00 (0000ms, 0669ms total)
T3324 000:940 JLINK_WriteReg(R8, 0x00000000)  returns 0x00 (0000ms, 0669ms total)
T3324 000:940 JLINK_WriteReg(R9, 0x20000160)  returns 0x00 (0000ms, 0669ms total)
T3324 000:940 JLINK_WriteReg(R10, 0x00000000)  returns 0x00 (0000ms, 0669ms total)
T3324 000:940 JLINK_WriteReg(R11, 0x00000000)  returns 0x00 (0000ms, 0669ms total)
T3324 000:940 JLINK_WriteReg(R12, 0x00000000)  returns 0x00 (0000ms, 0669ms total)
T3324 000:940 JLINK_WriteReg(R13 (SP), 0x20001000)  returns 0x00 (0000ms, 0669ms total)
T3324 000:940 JLINK_WriteReg(R14, 0x20000001)  returns 0x00 (0000ms, 0669ms total)
T3324 000:940 JLINK_WriteReg(R15 (PC), 0x200000F4)  returns 0x00 (0000ms, 0669ms total)
T3324 000:940 JLINK_WriteReg(XPSR, 0x01000000)  returns 0x00 (0000ms, 0669ms total)
T3324 000:940 JLINK_WriteReg(MSP, 0x20001000)  returns 0x00 (0000ms, 0669ms total)
T3324 000:940 JLINK_WriteReg(PSP, 0x20001000)  returns 0x00 (0000ms, 0669ms total)
T3324 000:940 JLINK_WriteReg(CFBP, 0x00000000)  returns 0x00 (0000ms, 0669ms total)
T3324 000:940 JLINK_SetBPEx(Addr = 0x20000000, Type = 0xFFFFFFF2)  returns 0x00000007 (0000ms, 0669ms total)
T3324 000:940 JLINK_Go() -- CPU_ReadMem(4 bytes @ 0xE0001000) (0003ms, 0672ms total)
T3324 000:943 JLINK_IsHalted()  returns FALSE (0000ms, 0672ms total)
T3324 000:946 JLINK_IsHalted()  returns FALSE (0000ms, 0672ms total)
T3324 000:948 JLINK_IsHalted()  returns FALSE (0000ms, 0672ms total)
T3324 000:950 JLINK_IsHalted()  returns FALSE (0000ms, 0672ms total)
T3324 000:952 JLINK_IsHalted()  returns FALSE (0000ms, 0672ms total)
T3324 000:955 JLINK_IsHalted()  returns FALSE (0000ms, 0672ms total)
T3324 000:957 JLINK_IsHalted()  returns FALSE (0000ms, 0672ms total)
T3324 000:959 JLINK_IsHalted()  returns FALSE (0001ms, 0673ms total)
T3324 000:961 JLINK_IsHalted()  returns FALSE (0000ms, 0672ms total)
T3324 000:963 JLINK_IsHalted()  returns FALSE (0000ms, 0672ms total)
T3324 000:965 JLINK_IsHalted()  returns FALSE (0000ms, 0672ms total)
T3324 000:967 JLINK_IsHalted()  returns FALSE (0000ms, 0672ms total)
T3324 000:971 JLINK_IsHalted()  returns FALSE (0000ms, 0672ms total)
T3324 000:973 JLINK_IsHalted() -- CPU_ReadMem(2 bytes @ 0x20000000)  returns TRUE (0003ms, 0675ms total)
T3324 000:976 JLINK_ReadReg(R15 (PC))  returns 0x20000000 (0000ms, 0672ms total)
T3324 000:976 JLINK_ClrBPEx(BPHandle = 0x00000007)  returns 0x00 (0000ms, 0672ms total)
T3324 000:976 JLINK_ReadReg(R0)  returns 0x00000000 (0000ms, 0672ms total)
T3324 000:976 JLINK_WriteMem(0x20000164, 0x0400 Bytes, ...) - Data: 18 B0 20 B5 FF F7 52 FB BD E8 20 40 4F F0 00 06 ... -- CPU_WriteMem(1024 bytes @ 0x20000164)  returns 0x400 (0005ms, 0677ms total)
T3324 000:981 JLINK_WriteReg(R0, 0x08000C00)  returns 0x00 (0000ms, 0677ms total)
T3324 000:981 JLINK_WriteReg(R1, 0x00000400)  returns 0x00 (0000ms, 0677ms total)
T3324 000:981 JLINK_WriteReg(R2, 0x20000164)  returns 0x00 (0000ms, 0677ms total)
T3324 000:981 JLINK_WriteReg(R3, 0x00000000)  returns 0x00 (0000ms, 0677ms total)
T3324 000:981 JLINK_WriteReg(R4, 0x00000000)  returns 0x00 (0000ms, 0677ms total)
T3324 000:981 JLINK_WriteReg(R5, 0x00000000)  returns 0x00 (0000ms, 0677ms total)
T3324 000:981 JLINK_WriteReg(R6, 0x00000000)  returns 0x00 (0000ms, 0677ms total)
T3324 000:981 JLINK_WriteReg(R7, 0x00000000)  returns 0x00 (0000ms, 0677ms total)
T3324 000:981 JLINK_WriteReg(R8, 0x00000000)  returns 0x00 (0000ms, 0677ms total)
T3324 000:981 JLINK_WriteReg(R9, 0x20000160)  returns 0x00 (0000ms, 0677ms total)
T3324 000:981 JLINK_WriteReg(R10, 0x00000000)  returns 0x00 (0000ms, 0677ms total)
T3324 000:981 JLINK_WriteReg(R11, 0x00000000)  returns 0x00 (0000ms, 0677ms total)
T3324 000:981 JLINK_WriteReg(R12, 0x00000000)  returns 0x00 (0000ms, 0677ms total)
T3324 000:981 JLINK_WriteReg(R13 (SP), 0x20001000)  returns 0x00 (0000ms, 0677ms total)
T3324 000:981 JLINK_WriteReg(R14, 0x20000001)  returns 0x00 (0000ms, 0677ms total)
T3324 000:981 JLINK_WriteReg(R15 (PC), 0x200000F4)  returns 0x00 (0000ms, 0677ms total)
T3324 000:981 JLINK_WriteReg(XPSR, 0x01000000)  returns 0x00 (0000ms, 0677ms total)
T3324 000:981 JLINK_WriteReg(MSP, 0x20001000)  returns 0x00 (0000ms, 0677ms total)
T3324 000:981 JLINK_WriteReg(PSP, 0x20001000)  returns 0x00 (0000ms, 0677ms total)
T3324 000:981 JLINK_WriteReg(CFBP, 0x00000000)  returns 0x00 (0000ms, 0677ms total)
T3324 000:981 JLINK_SetBPEx(Addr = 0x20000000, Type = 0xFFFFFFF2)  returns 0x00000008 (0000ms, 0677ms total)
T3324 000:981 JLINK_Go() -- CPU_ReadMem(4 bytes @ 0xE0001000) (0002ms, 0679ms total)
T3324 000:983 JLINK_IsHalted()  returns FALSE (0001ms, 0680ms total)
T3324 000:986 JLINK_IsHalted()  returns FALSE (0000ms, 0679ms total)
T3324 000:988 JLINK_IsHalted()  returns FALSE (0000ms, 0679ms total)
T3324 000:990 JLINK_IsHalted()  returns FALSE (0000ms, 0679ms total)
T3324 000:992 JLINK_IsHalted()  returns FALSE (0000ms, 0679ms total)
T3324 000:994 JLINK_IsHalted()  returns FALSE (0000ms, 0679ms total)
T3324 000:997 JLINK_IsHalted()  returns FALSE (0000ms, 0679ms total)
T3324 000:998 JLINK_IsHalted()  returns FALSE (0000ms, 0679ms total)
T3324 001:000 JLINK_IsHalted()  returns FALSE (0000ms, 0679ms total)
T3324 001:002 JLINK_IsHalted()  returns FALSE (0000ms, 0679ms total)
T3324 001:005 JLINK_IsHalted()  returns FALSE (0000ms, 0679ms total)
T3324 001:007 JLINK_IsHalted()  returns FALSE (0000ms, 0679ms total)
T3324 001:009 JLINK_IsHalted()  returns FALSE (0000ms, 0679ms total)
T3324 001:012 JLINK_IsHalted()  returns FALSE (0000ms, 0679ms total)
T3324 001:014 JLINK_IsHalted()  returns FALSE (0000ms, 0679ms total)
T3324 001:015 JLINK_IsHalted() -- CPU_ReadMem(2 bytes @ 0x20000000)  returns TRUE (0002ms, 0681ms total)
T3324 001:017 JLINK_ReadReg(R15 (PC))  returns 0x20000000 (0000ms, 0679ms total)
T3324 001:017 JLINK_ClrBPEx(BPHandle = 0x00000008)  returns 0x00 (0000ms, 0679ms total)
T3324 001:017 JLINK_ReadReg(R0)  returns 0x00000000 (0000ms, 0679ms total)
T3324 001:018 JLINK_WriteMem(0x20000164, 0x0400 Bytes, ...) - Data: 1C 0C 54 73 00 F5 D8 73 03 EB 01 13 9B 68 1B 0E ... -- CPU_WriteMem(1024 bytes @ 0x20000164)  returns 0x400 (0005ms, 0684ms total)
T3324 001:023 JLINK_WriteReg(R0, 0x08001000)  returns 0x00 (0000ms, 0684ms total)
T3324 001:023 JLINK_WriteReg(R1, 0x00000400)  returns 0x00 (0000ms, 0684ms total)
T3324 001:023 JLINK_WriteReg(R2, 0x20000164)  returns 0x00 (0000ms, 0684ms total)
T3324 001:023 JLINK_WriteReg(R3, 0x00000000)  returns 0x00 (0000ms, 0684ms total)
T3324 001:023 JLINK_WriteReg(R4, 0x00000000)  returns 0x00 (0000ms, 0684ms total)
T3324 001:023 JLINK_WriteReg(R5, 0x00000000)  returns 0x00 (0000ms, 0684ms total)
T3324 001:023 JLINK_WriteReg(R6, 0x00000000)  returns 0x00 (0000ms, 0684ms total)
T3324 001:023 JLINK_WriteReg(R7, 0x00000000)  returns 0x00 (0000ms, 0684ms total)
T3324 001:023 JLINK_WriteReg(R8, 0x00000000)  returns 0x00 (0000ms, 0684ms total)
T3324 001:023 JLINK_WriteReg(R9, 0x20000160)  returns 0x00 (0000ms, 0684ms total)
T3324 001:023 JLINK_WriteReg(R10, 0x00000000)  returns 0x00 (0000ms, 0684ms total)
T3324 001:023 JLINK_WriteReg(R11, 0x00000000)  returns 0x00 (0000ms, 0684ms total)
T3324 001:023 JLINK_WriteReg(R12, 0x00000000)  returns 0x00 (0000ms, 0684ms total)
T3324 001:023 JLINK_WriteReg(R13 (SP), 0x20001000)  returns 0x00 (0000ms, 0684ms total)
T3324 001:023 JLINK_WriteReg(R14, 0x20000001)  returns 0x00 (0000ms, 0684ms total)
T3324 001:023 JLINK_WriteReg(R15 (PC), 0x200000F4)  returns 0x00 (0000ms, 0684ms total)
T3324 001:023 JLINK_WriteReg(XPSR, 0x01000000)  returns 0x00 (0000ms, 0684ms total)
T3324 001:023 JLINK_WriteReg(MSP, 0x20001000)  returns 0x00 (0000ms, 0684ms total)
T3324 001:023 JLINK_WriteReg(PSP, 0x20001000)  returns 0x00 (0000ms, 0684ms total)
T3324 001:023 JLINK_WriteReg(CFBP, 0x00000000)  returns 0x00 (0000ms, 0684ms total)
T3324 001:023 JLINK_SetBPEx(Addr = 0x20000000, Type = 0xFFFFFFF2)  returns 0x00000009 (0000ms, 0684ms total)
T3324 001:023 JLINK_Go() -- CPU_ReadMem(4 bytes @ 0xE0001000) (0001ms, 0685ms total)
T3324 001:024 JLINK_IsHalted()  returns FALSE (0000ms, 0685ms total)
T3324 001:027 JLINK_IsHalted()  returns FALSE (0000ms, 0685ms total)
T3324 001:028 JLINK_IsHalted()  returns FALSE (0000ms, 0685ms total)
T3324 001:030 JLINK_IsHalted()  returns FALSE (0000ms, 0685ms total)
T3324 001:033 JLINK_IsHalted()  returns FALSE (0000ms, 0685ms total)
T3324 001:035 JLINK_IsHalted()  returns FALSE (0000ms, 0685ms total)
T3324 001:037 JLINK_IsHalted()  returns FALSE (0000ms, 0685ms total)
T3324 001:039 JLINK_IsHalted()  returns FALSE (0000ms, 0685ms total)
T3324 001:041 JLINK_IsHalted()  returns FALSE (0000ms, 0685ms total)
T3324 001:043 JLINK_IsHalted()  returns FALSE (0000ms, 0685ms total)
T3324 001:045 JLINK_IsHalted()  returns FALSE (0000ms, 0685ms total)
T3324 001:047 JLINK_IsHalted()  returns FALSE (0000ms, 0685ms total)
T3324 001:049 JLINK_IsHalted()  returns FALSE (0000ms, 0685ms total)
T3324 001:050 JLINK_IsHalted()  returns FALSE (0000ms, 0685ms total)
T3324 001:053 JLINK_IsHalted()  returns FALSE (0000ms, 0685ms total)
T3324 001:055 JLINK_IsHalted()  returns FALSE (0000ms, 0685ms total)
T3324 001:057 JLINK_IsHalted() -- CPU_ReadMem(2 bytes @ 0x20000000)  returns TRUE (0002ms, 0687ms total)
T3324 001:059 JLINK_ReadReg(R15 (PC))  returns 0x20000000 (0000ms, 0685ms total)
T3324 001:059 JLINK_ClrBPEx(BPHandle = 0x00000009)  returns 0x00 (0000ms, 0685ms total)
T3324 001:059 JLINK_ReadReg(R0)  returns 0x00000000 (0000ms, 0685ms total)
T3324 001:060 JLINK_WriteMem(0x20000164, 0x0400 Bytes, ...) - Data: 48 46 FF F7 F7 FE 00 90 9D F8 00 00 04 28 07 D0 ... -- CPU_WriteMem(1024 bytes @ 0x20000164)  returns 0x400 (0005ms, 0690ms total)
T3324 001:065 JLINK_WriteReg(R0, 0x08001400)  returns 0x00 (0000ms, 0690ms total)
T3324 001:065 JLINK_WriteReg(R1, 0x00000400)  returns 0x00 (0000ms, 0690ms total)
T3324 001:065 JLINK_WriteReg(R2, 0x20000164)  returns 0x00 (0000ms, 0690ms total)
T3324 001:065 JLINK_WriteReg(R3, 0x00000000)  returns 0x00 (0000ms, 0690ms total)
T3324 001:065 JLINK_WriteReg(R4, 0x00000000)  returns 0x00 (0000ms, 0690ms total)
T3324 001:065 JLINK_WriteReg(R5, 0x00000000)  returns 0x00 (0000ms, 0690ms total)
T3324 001:065 JLINK_WriteReg(R6, 0x00000000)  returns 0x00 (0000ms, 0690ms total)
T3324 001:065 JLINK_WriteReg(R7, 0x00000000)  returns 0x00 (0000ms, 0690ms total)
T3324 001:065 JLINK_WriteReg(R8, 0x00000000)  returns 0x00 (0000ms, 0690ms total)
T3324 001:065 JLINK_WriteReg(R9, 0x20000160)  returns 0x00 (0000ms, 0690ms total)
T3324 001:065 JLINK_WriteReg(R10, 0x00000000)  returns 0x00 (0000ms, 0690ms total)
T3324 001:065 JLINK_WriteReg(R11, 0x00000000)  returns 0x00 (0000ms, 0690ms total)
T3324 001:065 JLINK_WriteReg(R12, 0x00000000)  returns 0x00 (0000ms, 0690ms total)
T3324 001:065 JLINK_WriteReg(R13 (SP), 0x20001000)  returns 0x00 (0000ms, 0690ms total)
T3324 001:065 JLINK_WriteReg(R14, 0x20000001)  returns 0x00 (0000ms, 0690ms total)
T3324 001:065 JLINK_WriteReg(R15 (PC), 0x200000F4)  returns 0x00 (0000ms, 0690ms total)
T3324 001:065 JLINK_WriteReg(XPSR, 0x01000000)  returns 0x00 (0000ms, 0690ms total)
T3324 001:065 JLINK_WriteReg(MSP, 0x20001000)  returns 0x00 (0000ms, 0690ms total)
T3324 001:065 JLINK_WriteReg(PSP, 0x20001000)  returns 0x00 (0000ms, 0690ms total)
T3324 001:065 JLINK_WriteReg(CFBP, 0x00000000)  returns 0x00 (0000ms, 0690ms total)
T3324 001:065 JLINK_SetBPEx(Addr = 0x20000000, Type = 0xFFFFFFF2)  returns 0x0000000A (0000ms, 0690ms total)
T3324 001:065 JLINK_Go() -- CPU_ReadMem(4 bytes @ 0xE0001000) (0002ms, 0692ms total)
T3324 001:067 JLINK_IsHalted()  returns FALSE (0001ms, 0693ms total)
T3324 001:072 JLINK_IsHalted()  returns FALSE (0000ms, 0692ms total)
T3324 001:074 JLINK_IsHalted()  returns FALSE (0000ms, 0692ms total)
T3324 001:076 JLINK_IsHalted()  returns FALSE (0000ms, 0692ms total)
T3324 001:079 JLINK_IsHalted()  returns FALSE (0000ms, 0692ms total)
T3324 001:081 JLINK_IsHalted()  returns FALSE (0000ms, 0692ms total)
T3324 001:083 JLINK_IsHalted()  returns FALSE (0000ms, 0692ms total)
T3324 001:085 JLINK_IsHalted()  returns FALSE (0000ms, 0692ms total)
T3324 001:087 JLINK_IsHalted()  returns FALSE (0000ms, 0692ms total)
T3324 001:089 JLINK_IsHalted()  returns FALSE (0000ms, 0692ms total)
T3324 001:091 JLINK_IsHalted()  returns FALSE (0000ms, 0692ms total)
T3324 001:092 JLINK_IsHalted()  returns FALSE (0000ms, 0692ms total)
T3324 001:095 JLINK_IsHalted()  returns FALSE (0000ms, 0692ms total)
T3324 001:097 JLINK_IsHalted()  returns FALSE (0000ms, 0692ms total)
T3324 001:099 JLINK_IsHalted() -- CPU_ReadMem(2 bytes @ 0x20000000)  returns TRUE (0002ms, 0694ms total)
T3324 001:101 JLINK_ReadReg(R15 (PC))  returns 0x20000000 (0000ms, 0692ms total)
T3324 001:101 JLINK_ClrBPEx(BPHandle = 0x0000000A)  returns 0x00 (0000ms, 0692ms total)
T3324 001:101 JLINK_ReadReg(R0)  returns 0x00000000 (0000ms, 0692ms total)
T3324 001:101 JLINK_WriteMem(0x20000164, 0x0400 Bytes, ...) - Data: 5A 1E 19 46 60 69 02 F0 77 FE E1 68 20 68 40 1A ... -- CPU_WriteMem(1024 bytes @ 0x20000164)  returns 0x400 (0006ms, 0698ms total)
T3324 001:107 JLINK_WriteReg(R0, 0x08001800)  returns 0x00 (0000ms, 0698ms total)
T3324 001:107 JLINK_WriteReg(R1, 0x00000400)  returns 0x00 (0000ms, 0698ms total)
T3324 001:107 JLINK_WriteReg(R2, 0x20000164)  returns 0x00 (0000ms, 0698ms total)
T3324 001:107 JLINK_WriteReg(R3, 0x00000000)  returns 0x00 (0000ms, 0698ms total)
T3324 001:107 JLINK_WriteReg(R4, 0x00000000)  returns 0x00 (0000ms, 0698ms total)
T3324 001:107 JLINK_WriteReg(R5, 0x00000000)  returns 0x00 (0000ms, 0698ms total)
T3324 001:107 JLINK_WriteReg(R6, 0x00000000)  returns 0x00 (0000ms, 0698ms total)
T3324 001:107 JLINK_WriteReg(R7, 0x00000000)  returns 0x00 (0000ms, 0698ms total)
T3324 001:107 JLINK_WriteReg(R8, 0x00000000)  returns 0x00 (0000ms, 0698ms total)
T3324 001:107 JLINK_WriteReg(R9, 0x20000160)  returns 0x00 (0000ms, 0698ms total)
T3324 001:107 JLINK_WriteReg(R10, 0x00000000)  returns 0x00 (0000ms, 0698ms total)
T3324 001:107 JLINK_WriteReg(R11, 0x00000000)  returns 0x00 (0000ms, 0698ms total)
T3324 001:107 JLINK_WriteReg(R12, 0x00000000)  returns 0x00 (0000ms, 0698ms total)
T3324 001:107 JLINK_WriteReg(R13 (SP), 0x20001000)  returns 0x00 (0000ms, 0698ms total)
T3324 001:107 JLINK_WriteReg(R14, 0x20000001)  returns 0x00 (0000ms, 0698ms total)
T3324 001:107 JLINK_WriteReg(R15 (PC), 0x200000F4)  returns 0x00 (0000ms, 0698ms total)
T3324 001:107 JLINK_WriteReg(XPSR, 0x01000000)  returns 0x00 (0000ms, 0698ms total)
T3324 001:107 JLINK_WriteReg(MSP, 0x20001000)  returns 0x00 (0000ms, 0698ms total)
T3324 001:107 JLINK_WriteReg(PSP, 0x20001000)  returns 0x00 (0000ms, 0698ms total)
T3324 001:107 JLINK_WriteReg(CFBP, 0x00000000)  returns 0x00 (0000ms, 0698ms total)
T3324 001:107 JLINK_SetBPEx(Addr = 0x20000000, Type = 0xFFFFFFF2)  returns 0x0000000B (0000ms, 0698ms total)
T3324 001:107 JLINK_Go() -- CPU_ReadMem(4 bytes @ 0xE0001000) (0002ms, 0700ms total)
T3324 001:109 JLINK_IsHalted()  returns FALSE (0000ms, 0700ms total)
T3324 001:111 JLINK_IsHalted()  returns FALSE (0000ms, 0700ms total)
T3324 001:113 JLINK_IsHalted()  returns FALSE (0000ms, 0700ms total)
T3324 001:115 JLINK_IsHalted()  returns FALSE (0000ms, 0700ms total)
T3324 001:117 JLINK_IsHalted()  returns FALSE (0000ms, 0700ms total)
T3324 001:119 JLINK_IsHalted()  returns FALSE (0000ms, 0700ms total)
T3324 001:121 JLINK_IsHalted()  returns FALSE (0000ms, 0700ms total)
T3324 001:123 JLINK_IsHalted()  returns FALSE (0000ms, 0700ms total)
T3324 001:125 JLINK_IsHalted()  returns FALSE (0000ms, 0700ms total)
T3324 001:127 JLINK_IsHalted()  returns FALSE (0000ms, 0700ms total)
T3324 001:129 JLINK_IsHalted()  returns FALSE (0000ms, 0700ms total)
T3324 001:131 JLINK_IsHalted()  returns FALSE (0000ms, 0700ms total)
T3324 001:133 JLINK_IsHalted()  returns FALSE (0000ms, 0700ms total)
T3324 001:135 JLINK_IsHalted()  returns FALSE (0000ms, 0700ms total)
T3324 001:137 JLINK_IsHalted()  returns FALSE (0000ms, 0700ms total)
T3324 001:139 JLINK_IsHalted()  returns FALSE (0000ms, 0700ms total)
T3324 001:141 JLINK_IsHalted() -- CPU_ReadMem(2 bytes @ 0x20000000)  returns TRUE (0003ms, 0703ms total)
T3324 001:144 JLINK_ReadReg(R15 (PC))  returns 0x20000000 (0000ms, 0700ms total)
T3324 001:144 JLINK_ClrBPEx(BPHandle = 0x0000000B)  returns 0x00 (0000ms, 0700ms total)
T3324 001:144 JLINK_ReadReg(R0)  returns 0x00000000 (0000ms, 0700ms total)
T3324 001:145 JLINK_WriteMem(0x20000164, 0x0400 Bytes, ...) - Data: 15 4C 24 68 04 F4 E0 64 C4 F5 E0 64 21 0A C1 F1 ... -- CPU_WriteMem(1024 bytes @ 0x20000164)  returns 0x400 (0004ms, 0704ms total)
T3324 001:149 JLINK_WriteReg(R0, 0x08001C00)  returns 0x00 (0001ms, 0705ms total)
T3324 001:150 JLINK_WriteReg(R1, 0x00000400)  returns 0x00 (0000ms, 0705ms total)
T3324 001:150 JLINK_WriteReg(R2, 0x20000164)  returns 0x00 (0000ms, 0705ms total)
T3324 001:150 JLINK_WriteReg(R3, 0x00000000)  returns 0x00 (0000ms, 0705ms total)
T3324 001:150 JLINK_WriteReg(R4, 0x00000000)  returns 0x00 (0000ms, 0705ms total)
T3324 001:150 JLINK_WriteReg(R5, 0x00000000)  returns 0x00 (0000ms, 0705ms total)
T3324 001:150 JLINK_WriteReg(R6, 0x00000000)  returns 0x00 (0000ms, 0705ms total)
T3324 001:150 JLINK_WriteReg(R7, 0x00000000)  returns 0x00 (0000ms, 0705ms total)
T3324 001:150 JLINK_WriteReg(R8, 0x00000000)  returns 0x00 (0000ms, 0705ms total)
T3324 001:150 JLINK_WriteReg(R9, 0x20000160)  returns 0x00 (0000ms, 0705ms total)
T3324 001:150 JLINK_WriteReg(R10, 0x00000000)  returns 0x00 (0000ms, 0705ms total)
T3324 001:150 JLINK_WriteReg(R11, 0x00000000)  returns 0x00 (0000ms, 0705ms total)
T3324 001:150 JLINK_WriteReg(R12, 0x00000000)  returns 0x00 (0000ms, 0705ms total)
T3324 001:150 JLINK_WriteReg(R13 (SP), 0x20001000)  returns 0x00 (0000ms, 0705ms total)
T3324 001:150 JLINK_WriteReg(R14, 0x20000001)  returns 0x00 (0000ms, 0705ms total)
T3324 001:150 JLINK_WriteReg(R15 (PC), 0x200000F4)  returns 0x00 (0000ms, 0705ms total)
T3324 001:150 JLINK_WriteReg(XPSR, 0x01000000)  returns 0x00 (0000ms, 0705ms total)
T3324 001:150 JLINK_WriteReg(MSP, 0x20001000)  returns 0x00 (0000ms, 0705ms total)
T3324 001:150 JLINK_WriteReg(PSP, 0x20001000)  returns 0x00 (0000ms, 0705ms total)
T3324 001:150 JLINK_WriteReg(CFBP, 0x00000000)  returns 0x00 (0000ms, 0705ms total)
T3324 001:150 JLINK_SetBPEx(Addr = 0x20000000, Type = 0xFFFFFFF2)  returns 0x0000000C (0000ms, 0705ms total)
T3324 001:150 JLINK_Go() -- CPU_ReadMem(4 bytes @ 0xE0001000) (0002ms, 0707ms total)
T3324 001:152 JLINK_IsHalted()  returns FALSE (0001ms, 0708ms total)
T3324 001:155 JLINK_IsHalted()  returns FALSE (0000ms, 0707ms total)
T3324 001:157 JLINK_IsHalted()  returns FALSE (0000ms, 0707ms total)
T3324 001:159 JLINK_IsHalted()  returns FALSE (0000ms, 0707ms total)
T3324 001:161 JLINK_IsHalted()  returns FALSE (0000ms, 0707ms total)
T3324 001:163 JLINK_IsHalted()  returns FALSE (0000ms, 0707ms total)
T3324 001:165 JLINK_IsHalted()  returns FALSE (0000ms, 0707ms total)
T3324 001:167 JLINK_IsHalted()  returns FALSE (0000ms, 0707ms total)
T3324 001:169 JLINK_IsHalted()  returns FALSE (0000ms, 0707ms total)
T3324 001:173 JLINK_IsHalted()  returns FALSE (0000ms, 0707ms total)
T3324 001:175 JLINK_IsHalted()  returns FALSE (0000ms, 0707ms total)
T3324 001:177 JLINK_IsHalted()  returns FALSE (0000ms, 0707ms total)
T3324 001:179 JLINK_IsHalted()  returns FALSE (0000ms, 0707ms total)
T3324 001:181 JLINK_IsHalted()  returns FALSE (0000ms, 0707ms total)
T3324 001:183 JLINK_IsHalted() -- CPU_ReadMem(2 bytes @ 0x20000000)  returns TRUE (0003ms, 0710ms total)
T3324 001:186 JLINK_ReadReg(R15 (PC))  returns 0x20000000 (0000ms, 0707ms total)
T3324 001:186 JLINK_ClrBPEx(BPHandle = 0x0000000C)  returns 0x00 (0000ms, 0707ms total)
T3324 001:186 JLINK_ReadReg(R0)  returns 0x00000000 (0000ms, 0707ms total)
T3324 001:187 JLINK_WriteMem(0x20000164, 0x0400 Bytes, ...) - Data: 29 B1 06 4A 92 69 02 43 04 4B 9A 61 04 E0 03 4A ... -- CPU_WriteMem(1024 bytes @ 0x20000164)  returns 0x400 (0004ms, 0711ms total)
T3324 001:191 JLINK_WriteReg(R0, 0x08002000)  returns 0x00 (0000ms, 0711ms total)
T3324 001:191 JLINK_WriteReg(R1, 0x00000400)  returns 0x00 (0000ms, 0711ms total)
T3324 001:191 JLINK_WriteReg(R2, 0x20000164)  returns 0x00 (0000ms, 0711ms total)
T3324 001:191 JLINK_WriteReg(R3, 0x00000000)  returns 0x00 (0000ms, 0711ms total)
T3324 001:191 JLINK_WriteReg(R4, 0x00000000)  returns 0x00 (0000ms, 0711ms total)
T3324 001:191 JLINK_WriteReg(R5, 0x00000000)  returns 0x00 (0000ms, 0711ms total)
T3324 001:191 JLINK_WriteReg(R6, 0x00000000)  returns 0x00 (0000ms, 0711ms total)
T3324 001:191 JLINK_WriteReg(R7, 0x00000000)  returns 0x00 (0000ms, 0711ms total)
T3324 001:191 JLINK_WriteReg(R8, 0x00000000)  returns 0x00 (0000ms, 0711ms total)
T3324 001:191 JLINK_WriteReg(R9, 0x20000160)  returns 0x00 (0000ms, 0711ms total)
T3324 001:191 JLINK_WriteReg(R10, 0x00000000)  returns 0x00 (0000ms, 0711ms total)
T3324 001:191 JLINK_WriteReg(R11, 0x00000000)  returns 0x00 (0000ms, 0711ms total)
T3324 001:191 JLINK_WriteReg(R12, 0x00000000)  returns 0x00 (0000ms, 0711ms total)
T3324 001:191 JLINK_WriteReg(R13 (SP), 0x20001000)  returns 0x00 (0000ms, 0711ms total)
T3324 001:191 JLINK_WriteReg(R14, 0x20000001)  returns 0x00 (0000ms, 0711ms total)
T3324 001:191 JLINK_WriteReg(R15 (PC), 0x200000F4)  returns 0x00 (0000ms, 0711ms total)
T3324 001:191 JLINK_WriteReg(XPSR, 0x01000000)  returns 0x00 (0000ms, 0711ms total)
T3324 001:191 JLINK_WriteReg(MSP, 0x20001000)  returns 0x00 (0000ms, 0711ms total)
T3324 001:191 JLINK_WriteReg(PSP, 0x20001000)  returns 0x00 (0000ms, 0711ms total)
T3324 001:191 JLINK_WriteReg(CFBP, 0x00000000)  returns 0x00 (0001ms, 0712ms total)
T3324 001:192 JLINK_SetBPEx(Addr = 0x20000000, Type = 0xFFFFFFF2)  returns 0x0000000D (0000ms, 0712ms total)
T3324 001:192 JLINK_Go() -- CPU_ReadMem(4 bytes @ 0xE0001000) (0002ms, 0714ms total)
T3324 001:194 JLINK_IsHalted()  returns FALSE (0000ms, 0714ms total)
T3324 001:197 JLINK_IsHalted()  returns FALSE (0000ms, 0714ms total)
T3324 001:199 JLINK_IsHalted()  returns FALSE (0000ms, 0714ms total)
T3324 001:201 JLINK_IsHalted()  returns FALSE (0000ms, 0714ms total)
T3324 001:203 JLINK_IsHalted()  returns FALSE (0000ms, 0714ms total)
T3324 001:205 JLINK_IsHalted()  returns FALSE (0000ms, 0714ms total)
T3324 001:207 JLINK_IsHalted()  returns FALSE (0000ms, 0714ms total)
T3324 001:209 JLINK_IsHalted()  returns FALSE (0000ms, 0714ms total)
T3324 001:211 JLINK_IsHalted()  returns FALSE (0000ms, 0714ms total)
T3324 001:213 JLINK_IsHalted()  returns FALSE (0000ms, 0714ms total)
T3324 001:215 JLINK_IsHalted()  returns FALSE (0000ms, 0714ms total)
T3324 001:217 JLINK_IsHalted()  returns FALSE (0000ms, 0714ms total)
T3324 001:219 JLINK_IsHalted()  returns FALSE (0000ms, 0714ms total)
T3324 001:222 JLINK_IsHalted()  returns FALSE (0000ms, 0714ms total)
T3324 001:224 JLINK_IsHalted()  returns FALSE (0000ms, 0714ms total)
T3324 001:226 JLINK_IsHalted() -- CPU_ReadMem(2 bytes @ 0x20000000)  returns TRUE (0002ms, 0716ms total)
T3324 001:228 JLINK_ReadReg(R15 (PC))  returns 0x20000000 (0000ms, 0714ms total)
T3324 001:228 JLINK_ClrBPEx(BPHandle = 0x0000000D)  returns 0x00 (0000ms, 0714ms total)
T3324 001:228 JLINK_ReadReg(R0)  returns 0x00000000 (0000ms, 0714ms total)
T3324 001:229 JLINK_WriteMem(0x20000164, 0x0400 Bytes, ...) - Data: 00 00 0F 20 8D F8 01 00 00 20 8D F8 02 00 01 20 ... -- CPU_WriteMem(1024 bytes @ 0x20000164)  returns 0x400 (0005ms, 0719ms total)
T3324 001:234 JLINK_WriteReg(R0, 0x08002400)  returns 0x00 (0000ms, 0719ms total)
T3324 001:234 JLINK_WriteReg(R1, 0x00000400)  returns 0x00 (0000ms, 0719ms total)
T3324 001:234 JLINK_WriteReg(R2, 0x20000164)  returns 0x00 (0000ms, 0719ms total)
T3324 001:234 JLINK_WriteReg(R3, 0x00000000)  returns 0x00 (0000ms, 0719ms total)
T3324 001:234 JLINK_WriteReg(R4, 0x00000000)  returns 0x00 (0000ms, 0719ms total)
T3324 001:234 JLINK_WriteReg(R5, 0x00000000)  returns 0x00 (0000ms, 0719ms total)
T3324 001:234 JLINK_WriteReg(R6, 0x00000000)  returns 0x00 (0000ms, 0719ms total)
T3324 001:234 JLINK_WriteReg(R7, 0x00000000)  returns 0x00 (0000ms, 0719ms total)
T3324 001:234 JLINK_WriteReg(R8, 0x00000000)  returns 0x00 (0000ms, 0719ms total)
T3324 001:234 JLINK_WriteReg(R9, 0x20000160)  returns 0x00 (0000ms, 0719ms total)
T3324 001:234 JLINK_WriteReg(R10, 0x00000000)  returns 0x00 (0000ms, 0719ms total)
T3324 001:234 JLINK_WriteReg(R11, 0x00000000)  returns 0x00 (0000ms, 0719ms total)
T3324 001:234 JLINK_WriteReg(R12, 0x00000000)  returns 0x00 (0000ms, 0719ms total)
T3324 001:234 JLINK_WriteReg(R13 (SP), 0x20001000)  returns 0x00 (0000ms, 0719ms total)
T3324 001:234 JLINK_WriteReg(R14, 0x20000001)  returns 0x00 (0000ms, 0719ms total)
T3324 001:234 JLINK_WriteReg(R15 (PC), 0x200000F4)  returns 0x00 (0000ms, 0719ms total)
T3324 001:234 JLINK_WriteReg(XPSR, 0x01000000)  returns 0x00 (0000ms, 0719ms total)
